     0  1  2  3  4  5  6  7  8  9  a  b  c  d  e  f    0123456789abcdef
00: 45 00 00 03 01 40 40 40 80 04 10 04 00 00 0c 00    E..??@@@????..?.
10: 01 09 40 80 00 04 02 00 f0 fb 04 03 80 9c 05 a0    ??@?.??.????????
20: 00 80 00 80 04 00 00 00 03 8f 78 04 95 0c 36 12    .?.??...??x???6?
30: 09 14 00 00 01 19 f5 3f ff ff ff ff ff ff ff ff    ??..????........
40: 00 00 00 00 00 00 00 00 00 00 00 00 00 00 00 00    ................
50: 00 00 00 00 00 00 00 00 00 00 00 ff ff ff ff ff    ................
60: 55 55 34 c0 ff ff ff ff ff ff ff ff ff ff ff ff    UU4?............
70: 00 00 00 00 00 00 00 00 00 00 00 30 10 fe 00 ff    ...........0??..
80: 45 00 00 03 01 40 40 40 80 04 10 04 00 00 0c 00    E..??@@@????..?.
90: 01 09 40 80 00 04 02 00 f0 fb 04 03 80 9c 05 a0    ??@?.??.????????
a0: 00 80 00 80 04 00 00 00 03 8f 78 04 95 0c 36 12    .?.??...??x???6?
b0: 09 14 00 00 01 19 f5 3f ff ff ff ff ff ff ff ff    ??..????........
c0: 00 00 00 00 00 00 00 00 00 00 00 00 00 00 00 00    ................
d0: 00 00 00 00 00 00 00 00 00 00 00 ff ff ff ff ff    ................
e0: 55 55 34 c0 ff ff ff ff ff ff ff ff ff ff ff ff    UU4?............
f0: 00 00 00 00 00 00 00 00 00 00 00 30 10 fe 00 ff    ...........0??..
