     0  1  2  3  4  5  6  7  8  9  a  b  c  d  e  f    0123456789abcdef
00: 45 00 00 03 00 40 40 40 80 04 10 03 00 03 00 00    E..?.@@@????.?..
10: 01 11 40 e0 00 04 02 04 f0 10 04 03 80 9c 05 41    ??@?.??????????A
20: 00 80 00 7f 04 00 00 00 18 60 40 1b 7e 48 38 12    .?.??...?`@?~H8?
30: 12 13 00 00 01 19 f5 3f ff ff ff ff ff ff ff ff    ??..????........
40: 00 00 00 00 00 00 00 00 00 00 00 00 00 00 00 00    ................
50: 00 00 00 00 00 00 00 00 00 00 00 ff ff ff ff ff    ................
60: 55 55 34 c2 ff ff ff ff ff ff ff ff ff ff ff ff    UU4?............
70: 00 00 00 00 00 01 04 00 00 00 00 00 68 07 00 ff    .....??.....h?..
80: 45 00 00 03 00 40 40 40 80 04 10 03 00 03 00 00    E..?.@@@????.?..
90: 01 11 40 e0 00 04 02 04 f0 10 04 03 80 9c 05 41    ??@?.??????????A
a0: 00 80 00 7f 04 00 00 00 18 60 40 1b 7e 48 38 12    .?.??...?`@?~H8?
b0: 12 13 00 00 01 19 f5 3f ff ff ff ff ff ff ff ff    ??..????........
c0: 00 00 00 00 00 00 00 00 00 00 00 00 00 00 00 00    ................
d0: 00 00 00 00 00 00 00 00 00 00 00 ff ff ff ff ff    ................
e0: 55 55 34 c2 ff ff ff ff ff ff ff ff ff ff ff ff    UU4?............
f0: 00 00 00 00 00 01 04 00 00 00 00 00 68 07 00 ff    .....??.....h?..
