     0  1  2  3  4  5  6  7  8  9  a  b  c  d  e  f    0123456789abcdef
00: 45 00 00 03 00 40 40 40 80 04 13 03 00 03 00 00    E..?.@@@????.?..
10: 01 19 40 6c 00 04 02 04 f0 12 04 03 80 9c 05 41    ??@l.??????????A
20: 00 80 00 7a 04 00 00 00 1d 7c 00 20 f5 80 38 12    .?.z?...?|. ??8?
30: 12 13 00 00 01 19 f5 3f ff ff ff ff ff ff ff ff    ??..????........
40: 00 00 00 00 00 00 00 00 00 00 00 00 00 00 00 00    ................
50: 00 00 00 00 00 00 00 00 00 00 00 ff ff ff ff ff    ................
60: 55 55 34 c2 ff ff ff ff ff ff ff ff ff ff ff ff    UU4?............
70: 04 0a 12 00 1a 7d 6c 5e 08 7e 00 00 8b 08 00 ff    ???.?}l^?~..??..
80: 45 00 00 03 00 40 40 40 80 04 13 03 00 03 00 00    E..?.@@@????.?..
90: 01 19 40 6c 00 04 02 04 f0 12 04 03 80 9c 05 41    ??@l.??????????A
a0: 00 80 00 7a 04 00 00 00 1d 7c 00 20 f5 80 38 12    .?.z?...?|. ??8?
b0: 12 13 00 00 01 19 f5 3f ff ff ff ff ff ff ff ff    ??..????........
c0: 00 00 00 00 00 00 00 00 00 00 00 00 00 00 00 00    ................
d0: 00 00 00 00 00 00 00 00 00 00 00 ff ff ff ff ff    ................
e0: 55 55 34 c2 ff ff ff ff ff ff ff ff ff ff ff ff    UU4?............
f0: 04 0a 12 00 1a 7d 6c 5e 08 7e 00 00 8b 08 00 ff    ???.?}l^?~..??..
